!File created by NanoVNA
# Hz S RI R 50
2100000000  0.181550976  0.120069296
2100195503  0.178546064  0.114080032
2100391007  0.179674000  0.112752312
2100586510  0.179698544  0.112055368
2100782014  0.180678128  0.110446176
2100977517  0.180705472  0.110040912
2101173021  0.179879056  0.110753856
2101368524  0.180856880  0.108810832
2101564027  0.181218496  0.108221376
2101759531  0.182034000  0.106127880
2101955034  0.182421520  0.105812720
2102150538  0.181239312  0.107188944
2102346041  0.181858368  0.105509064
2102541544  0.181894560  0.104940808
2102737048  0.182895856  0.103276664
2102932551  0.182882832  0.102140168
2103128055  0.182684192  0.103033576
2103323558  0.182949504  0.101989960
2103519062  0.182943408  0.101755728
2103714565  0.183739344  0.100227296
2103910068  0.183488912  0.098891784
2104105572  0.184015120  0.098725768
2104301075  0.183331872  0.097532008
2104496579  0.183555536  0.098166248
2104692082  0.184918736  0.094801512
2104887586  0.184381888  0.094208824
2105083089  0.184568864  0.094374864
2105278592  0.184836640  0.093038248
2105474096  0.184499808  0.094356376
2105669599  0.184927616  0.091485496
2105865103  0.185323616  0.090322136
2106060606  0.185217696  0.090154976
2106256109  0.185144944  0.088845024
2106451613  0.185005152  0.089319904
2106647116  0.185600096  0.087874792
2106842620  0.185232800  0.086384432
2107038123  0.185657120  0.085637024
2107233627  0.185600240  0.085060280
2107429130  0.184410112  0.085620976
2107624633  0.186313264  0.083188184
2107820137  0.186221520  0.082389144
2108015640  0.186449808  0.081650984
2108211144  0.186105760  0.080651928
2108406647  0.184395872  0.081115736
2108602151  0.185895920  0.078324856
2108797654  0.185553648  0.078412224
2108993157  0.185562976  0.076875000
2109188661  0.186652192  0.075701672
2109384164  0.185440256  0.076616800
2109579668  0.185325152  0.074695040
2109775171  0.185986368  0.073871936
2109970674  0.186206096  0.072214184
2110166178  0.185203504  0.071936984
2110361681  0.184676048  0.072257424
2110557185  0.185687392  0.070932064
2110752688  0.184710784  0.070612784
2110948192  0.186282704  0.068043640
2111143695  0.185057344  0.067809464
2111339198  0.184448864  0.068672872
2111534702  0.185388928  0.066093132
2111730205  0.184666784  0.065829136
2111925709  0.185434400  0.064063424
2112121212  0.182860704  0.063021736
2112316716  0.184183392  0.064262360
2112512219  0.184101248  0.062153372
2112707722  0.183367872  0.062390844
2112903226  0.184590672  0.059527880
2113098729  0.184015184  0.058164268
2113294233  0.183591248  0.058919440
2113489736  0.184090656  0.057375432
2113685239  0.181797312  0.057683908
2113880743  0.183208400  0.055674560
2114076246  0.183472464  0.053816280
2114271750  0.182475632  0.054142192
2114467253  0.182585184  0.053265772
2114662757  0.180972608  0.054073104
2114858260  0.182832032  0.051821972
2115053763  0.181198224  0.051477036
2115249267  0.183389184  0.049666916
2115444770  0.181012288  0.049347468
2115640274  0.181283888  0.049771824
2115835777  0.181736512  0.046809008
2116031281  0.181136528  0.046777152
2116226784  0.180909312  0.046030304
2116422287  0.179754848  0.045177172
2116617791  0.179528224  0.045667996
2116813294  0.178241760  0.043846912
2117008798  0.178786160  0.042918400
2117204301  0.179453408  0.041666056
2117399804  0.178371488  0.041022544
2117595308  0.177344080  0.042106456
2117790811  0.176312976  0.040828432
2117986315  0.178144128  0.039369604
2118181818  0.176660880  0.038945436
2118377322  0.176805216  0.037650460
2118572825  0.176001024  0.038509500
2118768328  0.175214928  0.035996812
2118963832  0.175466096  0.035785836
2119159335  0.176213488  0.034100096
2119354839  0.173240848  0.034483240
2119550342  0.173971408  0.034750224
2119745846  0.173034560  0.032763016
2119941349  0.172344592  0.032722616
2120136852  0.174038624  0.030999042
2120332356  0.172456512  0.030524898
2120527859  0.172000752  0.031236814
2120723363  0.171598112  0.028937122
2120918866  0.170234224  0.029387968
2121114370  0.171210720  0.027942026
2121309873  0.170779296  0.026978850
2121505376  0.168731648  0.027226034
2121700880  0.169732672  0.025932922
2121896383  0.167298128  0.025551488
2122091887  0.168728928  0.024523430
2122287390  0.167571200  0.023252570
2122482893  0.170464784  0.022837470
2122678397  0.167590240  0.022768302
2122873900  0.166884208  0.022996246
2123069404  0.167118576  0.021257634
2123264907  0.165771712  0.020291640
2123460411  0.165990976  0.020364382
2123655914  0.164551440  0.019156726
2123851417  0.164067376  0.019568710
2124046921  0.165234048  0.017579976
2124242424  0.162908528  0.017527396
2124437928  0.163871024  0.016858394
2124633431  0.162526864  0.015905509
2124828935  0.161740208  0.016778976
2125024438  0.164171984  0.014699782
2125219941  0.160271856  0.014489808
2125415445  0.161945872  0.014196776
2125610948  0.160751664  0.013091017
2125806452  0.159799792  0.013595604
2126001955  0.159833024  0.012584874
2126197458  0.158669456  0.012114632
2126392962  0.159772688  0.010757271
2126588465  0.160353296  0.010909482
2126783969  0.159426720  0.010420871
2126979472  0.158718992  0.009579468
2127174976  0.156149264  0.008750854
2127370479  0.156645760  0.008483707
2127565982  0.156270656  0.007301726
2127761486  0.154282608  0.007996986
2127956989  0.157496752  0.006199719
2128152493  0.156941408  0.005020169
2128347996  0.156089776  0.005179534
2128543500  0.153579616  0.004267282
2128739003  0.152790192  0.004737156
2128934506  0.153942480  0.002840826
2129130010  0.153485840  0.002418283
2129325513  0.152738400  0.001796900
2129521017  0.151288240  0.001480188
2129716520  0.149766128  0.001266349
2129912023  0.152318656 -0.000288783
2130107527  0.152120672  0.000028510
2130303030  0.152732784 -0.001306653
2130498534  0.150004752 -0.001524034
2130694037  0.149008624 -0.001653085
2130889541  0.148531440 -0.002953730
2131085044  0.146718448 -0.002577892
2131280547  0.150233904 -0.003871930
2131476051  0.146132432 -0.003143457
2131671554  0.148314736 -0.004295885
2131867058  0.146065824 -0.005092569
2132062561  0.144660160 -0.005564561
2132258065  0.144295648 -0.007286649
2132453568  0.142645360 -0.006681559
2132649071  0.143918160 -0.007304572
2132844575  0.142344688 -0.007706048
2133040078  0.141530368 -0.007082098
2133235582  0.145227408 -0.009274809
2133431085  0.139134576 -0.009571633
2133626588  0.143897168 -0.009926485
2133822092  0.140020880 -0.011044829
2134017595  0.140575808 -0.010167111
2134213099  0.138013392 -0.011729460
2134408602  0.139262416 -0.011956165
2134604106  0.138479920 -0.012653795
2134799609  0.137207888 -0.013010469
2134995112  0.138221680 -0.012467762
2135190616  0.139015104 -0.013816380
2135386119  0.131899000 -0.014733284
2135581623  0.138756192 -0.015455538
2135777126  0.137414480 -0.015823033
2135972630  0.137166176 -0.015731546
2136168133  0.134836240 -0.016173324
2136363636  0.131259200 -0.017321034
2136559140  0.132332104 -0.018013884
2136754643  0.134420512 -0.017151984
2136950147  0.129302664 -0.017838016
2137145650  0.132927376 -0.018801030
2137341153  0.131225752 -0.019333132
2137536657  0.132078248 -0.019589322
2137732160  0.130557720 -0.020423358
2137927664  0.126472504 -0.019582350
2138123167  0.129428728 -0.021284908
2138318671  0.128473208 -0.021868384
2138514174  0.127055080 -0.022548124
2138709677  0.128919248 -0.022772728
2138905181  0.126320448 -0.022598400
2139100684  0.123179936 -0.022856592
2139296188  0.124592504 -0.023605762
2139491691  0.124281840 -0.024939204
2139687195  0.123340744 -0.024989100
2139882698  0.121558720 -0.025006202
2140078201  0.124701640 -0.024752720
2140273705  0.121150672 -0.024941914
2140469208  0.119367672 -0.027224680
2140664712  0.120007944 -0.026749932
2140860215  0.119898360 -0.027242838
2141055718  0.120066280 -0.027731936
2141251222  0.113222720 -0.028028182
2141446725  0.117977072 -0.028782978
2141642229  0.118072568 -0.029278344
2141837732  0.117944848 -0.029208058
2142033236  0.115290128 -0.029177052
2142228739  0.113912560 -0.030853760
2142424242  0.117911792 -0.030516918
2142619746  0.114076040 -0.031174226
2142815249  0.112711008 -0.031543370
2143010753  0.114668288 -0.031977286
2143206256  0.112959944 -0.031597828
2143401760  0.112364008 -0.033271700
2143597263  0.107719384 -0.033303678
2143792766  0.107763112 -0.032808416
2143988270  0.112040288 -0.033717412
2144183773  0.108657840 -0.034449812
2144379277  0.107972440 -0.034833400
2144574780  0.105571216 -0.034291432
2144770283  0.105761784 -0.034698744
2144965787  0.104527952 -0.036218616
2145161290  0.103864288 -0.035447024
2145356794  0.107946808 -0.036465684
2145552297  0.101650448 -0.037539284
2145747801  0.102721488 -0.036222296
2145943304  0.099120232 -0.037190940
2146138807  0.106441968 -0.036717056
2146334311  0.097282856 -0.037762348
2146529814  0.097735600 -0.038552924
2146725318  0.101787360 -0.038389436
2146920821  0.097644248 -0.038630448
2147116325  0.096363216 -0.039247480
2147311828  0.097206000 -0.039218044
2147507331  0.096528688 -0.039768080
2147702835  0.095511272 -0.039341880
2147898338  0.093636704 -0.040766356
2148093842  0.090838120 -0.040555200
2148289345  0.095203032 -0.041241740
2148484848  0.089139008 -0.041243176
2148680352  0.091002568 -0.040638524
2148875855  0.089318360 -0.042074228
2149071359  0.089590192 -0.042093296
2149266862  0.084286792 -0.041945056
2149462366  0.088687952 -0.041667896
2149657869  0.084664200 -0.042419708
2149853372  0.086863032 -0.042773368
2150048876  0.082589376 -0.041950676
2150244379  0.080730128 -0.042386252
2150439883  0.083604696 -0.044024468
2150635386  0.079928376 -0.043567928
2150830890  0.078864456 -0.043954852
2151026393  0.078800856 -0.043078796
2151221896  0.081358800 -0.044658544
2151417400  0.076925840 -0.043814520
2151612903  0.079316784 -0.043705380
2151808407  0.076722968 -0.044847600
2152003910  0.078648656 -0.043945320
2152199413  0.077915848 -0.044045620
2152394917  0.074346968 -0.043936904
2152590420  0.071158768 -0.044951016
2152785924  0.071963568 -0.044597160
2152981427  0.075117328 -0.044873824
2153176931  0.068295104 -0.045223908
2153372434  0.065324828 -0.044654544
2153567937  0.070676104 -0.044485448
2153763441  0.067187976 -0.044737952
2153958944  0.066739360 -0.045357536
2154154448  0.066014512 -0.044753920
2154349951  0.063344920 -0.045159780
2154545455  0.064773472 -0.044679496
2154740958  0.060888508 -0.045416944
2154936461  0.063099884 -0.044767368
2155131965  0.062623568 -0.044691980
2155327468  0.061597792 -0.045172876
2155522972  0.062360060 -0.044461796
2155718475  0.057522188 -0.045363268
2155913978  0.060708936 -0.044845972
2156109482  0.058580632 -0.044541392
2156304985  0.054722392 -0.044028792
2156500489  0.056975272 -0.043982404
2156695992  0.052423132 -0.044095688
2156891496  0.053975664 -0.044705928
2157086999  0.053652816 -0.043361816
2157282502  0.052689388 -0.043579152
2157478006  0.050421480 -0.043413880
2157673509  0.048254204 -0.043702416
2157869013  0.046321744 -0.042836600
2158064516  0.043615892 -0.043063260
2158260020  0.045289544 -0.042305252
2158455523  0.044199172 -0.042440060
2158651026  0.042970212 -0.042464348
2158846530  0.046989596 -0.041675016
2159042033  0.042785652 -0.041506576
2159237537  0.043734488 -0.041424412
2159433040  0.043102820 -0.040806196
2159628544  0.038011496 -0.040754968
2159824047  0.040090552 -0.040911264
2160019550  0.039361236 -0.040016000
2160215054  0.039415504 -0.039705628
2160410557  0.037081288 -0.038999656
2160606061  0.035339352 -0.038204296
2160801564  0.037138892 -0.038224072
2160997067  0.032780346 -0.037897472
2161192571  0.037224884 -0.037696752
2161388074  0.032493450 -0.037171016
2161583578  0.029612768 -0.036594792
2161779081  0.032366970 -0.036348728
2161974585  0.028328310 -0.035391740
2162170088  0.030863136 -0.034847700
2162365591  0.027100420 -0.034827012
2162561095  0.025891128 -0.034573792
2162756598  0.026076688 -0.034003712
2162952102  0.026871148 -0.033379284
2163147605  0.029731824 -0.032683180
2163343109  0.024129770 -0.031873852
2163538612  0.021933454 -0.031853334
2163734115  0.021105740 -0.031214424
2163929619  0.017623130 -0.030843092
2164125122  0.021670684 -0.030023498
2164320626  0.023698786 -0.029270716
2164516129  0.021051690 -0.029380744
2164711632  0.022884986 -0.027897904
2164907136  0.017170422 -0.027906030
2165102639  0.022878828 -0.026770488
2165298143  0.020333090 -0.026929096
2165493646  0.020098988 -0.025739060
2165689150  0.020644826 -0.025568312
2165884653  0.016967984 -0.025025106
2166080156  0.020859450 -0.024085944
2166275660  0.016019516 -0.024135388
2166471163  0.018192790 -0.022366096
2166666667  0.013816949 -0.022892026
2166862170  0.013628239 -0.022249330
2167057674  0.018802186 -0.021575036
2167253177  0.013631575 -0.021512022
2167448680  0.014039304 -0.020630980
2167644184  0.011392489 -0.020220560
2167839687  0.012172983 -0.019917104
2168035191  0.015098771 -0.019371322
2168230694  0.011597248 -0.019347298
2168426197  0.014077080 -0.017980036
2168621701  0.013290155 -0.017739920
2168817204  0.012820618 -0.016788578
2169012708  0.014030623 -0.015694552
2169208211  0.012504840 -0.015629080
2169403715  0.011238127 -0.015439456
2169599218  0.008397326 -0.015438428
2169794721  0.005945071 -0.015230732
2169990225  0.008763370 -0.014473354
2170185728  0.010303797 -0.013523362
2170381232  0.010366081 -0.013040113
2170576735  0.006867011 -0.012526225
2170772239  0.007511286 -0.012038380
2170967742  0.009985144 -0.011568149
2171163245  0.009107096 -0.011309469
2171358749  0.010546604 -0.010315508
2171554252  0.008145587 -0.010052378
2171749756  0.004791864 -0.010760859
2171945259  0.005152480 -0.009243046
2172140762  0.007447267 -0.008724702
2172336266  0.005428921 -0.009573094
2172531769  0.008070926 -0.008697170
2172727273  0.011492075 -0.005682561
2172922776  0.003787533 -0.007090888
2173118280  0.004975450 -0.006722762
2173313783  0.005318868 -0.006488577
2173509286  0.003115315 -0.005509902
2173704790  0.002939882 -0.005691302
2173900293  0.004439942 -0.004592400
2174095797  0.003620216 -0.005033098
2174291300  0.004672983 -0.003340819
2174486804  0.003702892 -0.005078530
2174682307  0.005475335 -0.002013932
2174877810  0.006359454 -0.001729942
2175073314  0.000157698 -0.002752651
2175268817 -0.000238849 -0.001667081
2175464321  0.005239366 -0.000520478
2175659824  0.004457119 -0.000330752
2175855327  0.002183190  0.000210801
2176050831 -0.000138991  0.000282315
2176246334 -0.000024109  0.000953598
2176441838 -0.000900721  0.001171959
2176637341  0.001060166  0.001422844
2176832845  0.002274320  0.002320259
2177028348 -0.003628964  0.001355294
2177223851 -0.000880636  0.003526235
2177419355 -0.003019261  0.003313505
2177614858  0.001563749  0.004252502
2177810362 -0.001138866  0.004552342
2178005865 -0.000804668  0.004978297
2178201369 -0.000851357  0.005029226
2178396872 -0.003398928  0.005364033
2178592375  0.000653179  0.006643017
2178787879  0.000163623  0.007438496
2178983382 -0.003459892  0.006655495
2179178886  0.000885529  0.008505776
2179374389  0.000382959  0.008014792
2179569892  0.001526071  0.009752069
2179765396 -0.000607319  0.009705196
2179960899 -0.004364329  0.009870273
2180156403 -0.003305909  0.009456288
2180351906 -0.000009499  0.011251514
2180547410  0.001821120  0.012585394
2180742913 -0.002706709  0.011027292
2180938416 -0.005552017  0.011103907
2181133920  0.000059938  0.013090307
2181329423 -0.000045160  0.013778286
2181524927 -0.000137402  0.014379789
2181720430 -0.000065880  0.014581714
2181915934 -0.001031121  0.014835699
2182111437 -0.001144678  0.015536523
2182306940 -0.003242053  0.015505570
2182502444 -0.003068473  0.016458205
2182697947 -0.005328608  0.014924700
2182893451 -0.001279342  0.016899114
2183088954 -0.001278760  0.017541938
2183284457 -0.005450845  0.016672716
2183479961 -0.003369619  0.017934650
2183675464  0.000195884  0.019580908
2183870968 -0.001433710  0.019169990
2184066471 -0.002014898  0.018950016
2184261975 -0.003229038  0.019543736
2184457478 -0.000475114  0.021024034
2184652981 -0.002029423  0.021412030
2184848485 -0.001086592  0.021318450
2185043988  0.001685676  0.022492330
2185239492 -0.001630751  0.022641076
2185434995 -0.000362576  0.023417106
2185630499 -0.002454619  0.022553546
2185826002  0.001699512  0.025246480
2186021505  0.000476516  0.024306982
2186217009 -0.000769331  0.023995252
2186412512  0.000052644  0.024852284
2186608016 -0.000948124  0.024607782
2186803519  0.002111918  0.027118204
2186999022 -0.001696350  0.025199154
2187194526 -0.002444897  0.024990734
2187390029 -0.002961504  0.025928814
2187585533  0.001848952  0.027758270
2187781036 -0.000455684  0.027342330
2187976540  0.002059265  0.028739756
2188172043 -0.000334203  0.027272230
2188367546  0.003801673  0.029571570
2188563050 -0.000430503  0.027971062
2188758553  0.000140281  0.029225458
2188954057  0.001129892  0.029929826
2189149560 -0.000758449  0.028826694
2189345064  0.000021613  0.028954372
2189540567  0.001460422  0.030221550
2189736070  0.002428402  0.030568236
2189931574  0.000641803  0.030298404
2190127077 -0.000128895  0.030218172
2190322581  0.001327924  0.031032946
2190518084 -0.002427395  0.029500322
2190713587  0.003397334  0.033164778
2190909091  0.001332622  0.031626180
2191104594  0.005015713  0.034527424
2191300098  0.001257962  0.032099676
2191495601  0.002010881  0.032225952
2191691105  0.004339861  0.033186146
2191886608  0.002395047  0.033674112
2192082111  0.003978732  0.034716340
2192277615  0.005914774  0.035358008
2192473118  0.001262613  0.032769022
2192668622  0.005254765  0.034763944
2192864125  0.002689501  0.033379778
2193059629  0.004902412  0.035467392
2193255132  0.004599470  0.036345056
2193450635  0.001055875  0.032860570
2193646139  0.006460630  0.035992856
2193841642  0.007569070  0.037540308
2194037146  0.005050534  0.035699184
2194232649  0.004825438  0.035518292
2194428152  0.003904361  0.035757484
2194623656  0.006633942  0.036783748
2194819159  0.006095024  0.036888336
2195014663  0.007003515  0.037053556
2195210166  0.004187707  0.035065280
2195405670  0.006451534  0.037069424
2195601173  0.006601287  0.037387712
2195796676  0.005698042  0.035838692
2195992180  0.010034146  0.039682064
2196187683  0.007655974  0.037011052
2196383187  0.004140458  0.034852244
2196578690  0.008987221  0.038542420
2196774194  0.007868752  0.039129868
2196969697  0.008615920  0.038415624
2197165200  0.008124816  0.037935672
2197360704  0.007635218  0.037397356
2197556207  0.008759928  0.038782388
2197751711  0.008481705  0.038454436
2197947214  0.011030182  0.040079096
2198142717  0.007306937  0.037193800
2198338221  0.010136127  0.039117832
2198533724  0.008414301  0.038212516
2198729228  0.009259895  0.039570612
2198924731  0.011533174  0.040018940
2199120235  0.007780968  0.037383456
2199315738  0.011853445  0.040424632
2199511241  0.010734589  0.039584516
2199706745  0.008218174  0.037564840
2199902248  0.010966721  0.039413240
2200097752  0.011593243  0.040845988
2200293255  0.010626559  0.039146588
2200488759  0.009375820  0.037698312
2200684262  0.011673563  0.040213208
2200879765  0.011690913  0.040228672
2201075269  0.009285874  0.038384572
2201270772  0.012970919  0.041242436
2201466276  0.011065225  0.039777728
2201661779  0.010765778  0.039381860
2201857283  0.011706988  0.039661612
2202052786  0.011700669  0.040381972
2202248289  0.011143179  0.039745776
2202443793  0.011994542  0.040553284
