!File created by NanoVNA
# Hz S RI R 50
1000000000 -0.445111968  0.675189248
1002443793 -0.423400896  0.689791168
1004887586 -0.406410208  0.702783104
1007331378 -0.391062912  0.715119616
1009775171 -0.370126016  0.730982016
1012218964 -0.346995200  0.742607744
1014662757 -0.324059456  0.756274880
1017106549 -0.307179904  0.767302016
1019550342 -0.283269856  0.781093312
1021994135 -0.260392960  0.796628672
1024437928 -0.234653712  0.806023872
1026881720 -0.206169792  0.818155968
1029325513 -0.184567776  0.826746048
1031769306 -0.152655696  0.837885120
1034213099 -0.123994096  0.846431616
1036656891 -0.090615512  0.852332544
1039100684 -0.060951096  0.857483584
1041544477 -0.031247278  0.861502720
1043988270  0.002466892  0.863559936
1046432063  0.032235328  0.867708160
1048875855  0.064370276  0.867743872
1051319648  0.098120120  0.866995328
1053763441  0.130610928  0.863977088
1056207234  0.164622144  0.858515136
1058651026  0.199138032  0.854496448
1061094819  0.228830208  0.844799104
1063538612  0.263657008  0.836320192
1065982405  0.294993696  0.825470336
1068426197  0.325887296  0.813681664
1070869990  0.357898624  0.801550528
1073313783  0.389088288  0.785801792
1075757576  0.420702304  0.768851520
1078201369  0.448504608  0.752508992
1080645161  0.480087296  0.733068352
1083088954  0.509429920  0.714268416
1085532747  0.536080000  0.689957568
1087976540  0.563834944  0.669281216
1090420332  0.588537216  0.645483328
1092864125  0.616290368  0.617159744
1095307918  0.641780288  0.587888768
1097751711  0.662599296  0.563647424
1100195503  0.686308224  0.531340256
1102639296  0.704993792  0.501299456
1105083089  0.723040512  0.469148704
1107526882  0.739341056  0.438030240
1109970674  0.752611520  0.401391232
1112414467  0.769470016  0.370545152
1114858260  0.781466624  0.333994496
1117302053  0.791633920  0.294922400
1119745846  0.800496448  0.263667968
1122189638  0.807366528  0.222908000
1124633431  0.812099904  0.184119520
1127077224  0.814873856  0.149493216
1129521017  0.815577216  0.110992480
1131964809  0.815644032  0.073123464
1134408602  0.812391040  0.036087844
1136852395  0.806609024 -0.005280386
1139296188  0.800731328 -0.040250672
1141739980  0.793172736 -0.075459416
1144183773  0.782684096 -0.111713320
1146627566  0.770052736 -0.149498912
1149071359  0.754490048 -0.186384432
1151515152  0.738371072 -0.220379152
1153958944  0.719788928 -0.254870928
1156402737  0.701323200 -0.284704096
1158846530  0.680449664 -0.314816416
1161290323  0.654591680 -0.350229728
1163734115  0.632294208 -0.376158944
1166177908  0.603427264 -0.406064288
1168621701  0.577409984 -0.430615968
1171065494  0.547825280 -0.454726944
1173509286  0.515591680 -0.474749568
1175953079  0.484387936 -0.495953056
1178396872  0.451719328 -0.513983200
1180840665  0.418381344 -0.531571200
1183284457  0.384766176 -0.548066112
1185728250  0.349305920 -0.560205184
1188172043  0.312567808 -0.571624512
1190615836  0.277157664 -0.578569408
1193059629  0.239101440 -0.583901888
1195503421  0.199802800 -0.586287616
1197947214  0.165958960 -0.582683840
1200391007  0.130486904 -0.579270464
1202834800  0.096879840 -0.573696192
1205278592  0.065728160 -0.565686848
1207722385  0.034289216 -0.556664512
1210166178  0.006601434 -0.545344960
1212609971 -0.018821094 -0.534337888
1215053763 -0.045865068 -0.520321920
1217497556 -0.069683600 -0.507518400
1219941349 -0.091156288 -0.493381664
1222385142 -0.111715552 -0.478718208
1224828935 -0.130873144 -0.464508704
1227272727 -0.147908800 -0.450062272
1229716520 -0.165899152 -0.435720224
1232160313 -0.181137920 -0.421381888
1234604106 -0.194684000 -0.407441664
1237047898 -0.208067456 -0.394150432
1239491691 -0.219961184 -0.382276128
1241935484 -0.234262720 -0.370981056
1244379277 -0.247883888 -0.359894976
1246823069 -0.261725424 -0.348667840
1249266862 -0.276079680 -0.339173888
1251710655 -0.291687648 -0.327861888
1254154448 -0.311689440 -0.316431584
1256598240 -0.329083904 -0.301599296
1259042033 -0.348067648 -0.287035840
1261485826 -0.367046720 -0.265347568
1263929619 -0.382485696 -0.248625264
1266373412 -0.399817184 -0.225972272
1268817204 -0.414246784 -0.201823184
1271260997 -0.427743040 -0.177908928
1273704790 -0.440129056 -0.148799280
1276148583 -0.449556672 -0.119597472
1278592375 -0.457713472 -0.092285088
1281036168 -0.462714752 -0.060034928
1283479961 -0.466327424 -0.031766206
1285923754 -0.467272384  0.001030565
1288367546 -0.468155072  0.027205094
1290811339 -0.464927264  0.063464052
1293255132 -0.461068192  0.093524352
1295698925 -0.453639360  0.126359152
1298142717 -0.442223392  0.159200448
1300586510 -0.432742272  0.185775696
1303030303 -0.417014496  0.218086608
1305474096 -0.400870496  0.245635056
1307917889 -0.382460800  0.272564992
1310361681 -0.360611072  0.300741568
1312805474 -0.337805344  0.327511648
1315249267 -0.310932928  0.350773184
1317693060 -0.280414912  0.375109664
1320136852 -0.247763152  0.392472288
1322580645 -0.212206976  0.408515744
1325024438 -0.178356656  0.419101824
1327468231 -0.143304864  0.424157664
1329912023 -0.108884416  0.429571456
1332355816 -0.070908520  0.428498112
1334799609 -0.035546072  0.427153376
1337243402 -0.002116616  0.420527264
1339687195  0.033297126  0.409773952
1342130987  0.065338308  0.397567520
1344574780  0.094652080  0.378515360
1347018573  0.122229752  0.356238496
1349462366  0.145527952  0.331557472
1351906158  0.164831504  0.304919680
1354349951  0.178171360  0.278403776
1356793744  0.189679536  0.248340704
1359237537  0.195748096  0.217084304
1361681329  0.194823760  0.185500256
1364125122  0.187477440  0.155163472
1366568915  0.171660848  0.129894896
1369012708  0.151927360  0.110625096
1371456500  0.129722240  0.099973592
1373900293  0.107768312  0.096241512
1376344086  0.087214952  0.101107984
1378787879  0.071583592  0.111767176
1381231672  0.062343816  0.125826432
1383675464  0.058689540  0.141471808
1386119257  0.061352948  0.156990864
1388563050  0.066861332  0.170094432
1391006843  0.075722872  0.182788624
1393450635  0.089366424  0.193731312
1395894428  0.104244392  0.201855696
1398338221  0.121936256  0.206529296
1400782014  0.140704112  0.207011472
1403225806  0.158557184  0.206063200
1405669599  0.176990688  0.201221984
1408113392  0.193981616  0.193477728
1410557185  0.210556768  0.183847568
1413000978  0.224407536  0.171726544
1415444770  0.235732544  0.158248672
1417888563  0.245985728  0.146397360
1420332356  0.253698944  0.131495536
1422776149  0.261599664  0.118788888
1425219941  0.268714016  0.105235568
1427663734  0.275102464  0.091771904
1430107527  0.281455584  0.079309016
1432551320  0.286205280  0.062265428
1434995112  0.290498944  0.046590852
1437438905  0.293299488  0.030811114
1439882698  0.293162496  0.013965966
1442326491  0.293157088 -0.000786136
1444770283  0.291701344 -0.018535202
1447214076  0.288629216 -0.030921174
1449657869  0.285747136 -0.044296184
1452101662  0.282612352 -0.055728708
1454545455  0.279818592 -0.069942664
1456989247  0.276459136 -0.083971712
1459433040  0.271902048 -0.097103768
1461876833  0.265049184 -0.111556872
1464320626  0.258264992 -0.123191032
1466764418  0.249936976 -0.137090768
1469208211  0.243327216 -0.145646960
1471652004  0.234632928 -0.158012176
1474095797  0.226352640 -0.167197072
1476539589  0.217207536 -0.176857440
1478983382  0.206850064 -0.186424144
1481427175  0.197320064 -0.193932064
1483870968  0.188057328 -0.199729248
1486314761  0.179240160 -0.205777760
1488758553  0.170077280 -0.213337312
1491202346  0.159904896 -0.219974336
1493646139  0.149608496 -0.226322304
1496089932  0.138214560 -0.230941728
1498533724  0.127584280 -0.234296176
1500977517  0.117275464 -0.237261072
1503421310  0.108421424 -0.239233904
1505865103  0.100127944 -0.242808640
1508308895  0.090832392 -0.246250848
1510752688  0.081197232 -0.249571520
1513196481  0.071865336 -0.252578592
1515640274  0.061362916 -0.256100384
1518084066  0.051698524 -0.259059664
1520527859  0.038436552 -0.262207248
1522971652  0.024553122 -0.262283680
1525415445  0.011096153 -0.262230896
1527859238 -0.002472375 -0.258584448
1530303030 -0.013952371 -0.253160032
1532746823 -0.024491296 -0.247581728
1535190616 -0.032082972 -0.241031248
1537634409 -0.039204316 -0.235925264
1540078201 -0.045866532 -0.228899312
1542521994 -0.050481656 -0.224375504
1544965787 -0.057052180 -0.218632464
1547409580 -0.061841832 -0.215286576
1549853372 -0.067645352 -0.208691888
1552297165 -0.071464376 -0.203063584
1554740958 -0.072677224 -0.197912304
1557184751 -0.075819672 -0.191826032
1559628544 -0.075945136 -0.189821616
1562072336 -0.079590376 -0.186510688
1564516129 -0.080850472 -0.182493184
1566959922 -0.082259440 -0.178744800
1569403715 -0.083544688 -0.175515952
1571847507 -0.083668344 -0.172525888
1574291300 -0.084425976 -0.171618992
1576735093 -0.085322120 -0.170019712
1579178886 -0.085590736 -0.170478448
1581622678 -0.088505472 -0.168020288
1584066471 -0.088665960 -0.168020848
1586510264 -0.092361368 -0.166303840
1588954057 -0.092597176 -0.165946880
1591397849 -0.095314728 -0.162399936
1593841642 -0.094289696 -0.161621808
1596285435 -0.094437392 -0.159939600
1598729228 -0.091198968 -0.163580864
1601173021 -0.094520808 -0.159908448
1603616813 -0.092613856 -0.162799088
1606060606 -0.091982424 -0.164178944
1608504399 -0.089081992 -0.168892704
1610948192 -0.088533656 -0.176430640
1613391984 -0.091465160 -0.182487728
1615835777 -0.095590752 -0.190656928
1618279570 -0.103857760 -0.196211312
1620723363 -0.112038960 -0.200785360
1623167155 -0.121063608 -0.204809872
1625610948 -0.129593600 -0.206859488
1628054741 -0.138937952 -0.208422160
1630498534 -0.150544048 -0.205718896
1632942326 -0.157034240 -0.206528592
1635386119 -0.165300096 -0.206291776
1637829912 -0.171058624 -0.206813792
1640273705 -0.180656288 -0.206607488
1642717498 -0.190431408 -0.205924336
1645161290 -0.204103856 -0.203865968
1647605083 -0.216687520 -0.199309824
1650048876 -0.225357344 -0.194284448
1652492669 -0.236894944 -0.187076784
1654936461 -0.245421952 -0.178934112
1657380254 -0.254508816 -0.171163344
1659824047 -0.262253760 -0.161064352
1662267840 -0.268653600 -0.152984944
1664711632 -0.274365408 -0.142374304
1667155425 -0.280818592 -0.131784696
1669599218 -0.285012160 -0.120544000
1672043011 -0.287165632 -0.108867480
1674486804 -0.291342304 -0.096498808
1676930596 -0.289744768 -0.086033544
1679374389 -0.289657504 -0.072065736
1681818182 -0.287156128 -0.060294404
1684261975 -0.282308800 -0.049424792
1686705767 -0.275425408 -0.038908152
1689149560 -0.265770672 -0.030541116
1691593353 -0.255262400 -0.024488152
1694037146 -0.243906592 -0.023087778
1696480938 -0.233828400 -0.023815280
1698924731 -0.224314736 -0.030179688
1701368524 -0.217670176 -0.035856284
1703812317 -0.213727920 -0.045359704
1706256109 -0.213902496 -0.054891032
1708699902 -0.217843280 -0.063181504
1711143695 -0.222803440 -0.072022752
1713587488 -0.229549600 -0.076038448
1716031281 -0.237659104 -0.080494304
1718475073 -0.245501184 -0.084090136
1720918866 -0.255064400 -0.084881064
1723362659 -0.263901232 -0.086073728
1725806452 -0.274019488 -0.084561064
1728250244 -0.282917280 -0.083598544
1730694037 -0.291592768 -0.081062504
1733137830 -0.300628544 -0.077891936
1735581623 -0.309674592 -0.076375416
1738025415 -0.319905568 -0.072587816
1740469208 -0.331753920 -0.068868576
1742913001 -0.343246944 -0.064158136
1745356794 -0.355054080 -0.055057852
1747800587 -0.365847968 -0.048229660
1750244379 -0.377106784 -0.036079300
1752688172 -0.385635968 -0.025462250
1755131965 -0.395005056 -0.012609376
1757575758 -0.403267264  0.000892703
1760019550 -0.409793504  0.015287636
1762463343 -0.415900384  0.031384670
1764907136 -0.421102592  0.046178356
1767350929 -0.425327968  0.059726520
1769794721 -0.424754560  0.080193960
1772238514 -0.426447680  0.096559936
1774682307 -0.423292384  0.116654576
1777126100 -0.421504032  0.132223216
1779569892 -0.421043872  0.145391616
1782013685 -0.415075904  0.160973456
1784457478 -0.410496768  0.177467776
1786901271 -0.403361152  0.194808560
1789345064 -0.399159936  0.206803264
1791788856 -0.384922016  0.228146144
1794232649 -0.377315584  0.236789344
1796676442 -0.365345056  0.250339664
1799120235 -0.350340800  0.264773392
1801564027 -0.340827136  0.270158048
1804007820 -0.324393632  0.280103488
1806451613 -0.310425536  0.286988864
1808895406 -0.298727648  0.290574624
1811339198 -0.286194400  0.295072448
1813782991 -0.276459968  0.299369440
1816226784 -0.262922672  0.301694816
1818670577 -0.255826896  0.299644640
1821114370 -0.241808048  0.305710400
1823558162 -0.232932640  0.305646304
1826001955 -0.224281360  0.307521120
1828445748 -0.212039328  0.308605408
1830889541 -0.203361472  0.310049536
1833333333 -0.192486960  0.309729376
1835777126 -0.183625104  0.308942848
1838220919 -0.175875008  0.309409664
1840664712 -0.164266512  0.307802688
1843108504 -0.157873024  0.306239840
1845552297 -0.148883760  0.303599680
1847996090 -0.141862720  0.301584128
1850439883 -0.135189232  0.300549248
1852883675 -0.127076848  0.296789184
1855327468 -0.121268984  0.296530048
1857771261 -0.116130304  0.290640672
1860215054 -0.110533808  0.290325792
1862658847 -0.104858808  0.290482144
1865102639 -0.098072280  0.287232896
1867546432 -0.091664200  0.286338720
1869990225 -0.085319136  0.279458528
1872434018 -0.078032536  0.277657088
1874877810 -0.074234536  0.272403776
1877321603 -0.067995984  0.266400368
1879765396 -0.066425428  0.262637232
1882209189 -0.061923592  0.255121056
1884652981 -0.060189820  0.250456160
1887096774 -0.061243440  0.244828752
1889540567 -0.060785060  0.239284768
1891984360 -0.063559452  0.235585248
1894428152 -0.065153072  0.232815904
1896871945 -0.068500976  0.231226112
1899315738 -0.071301160  0.231001312
1901759531 -0.071111216  0.231318672
1904203324 -0.073834056  0.232421568
1906647116 -0.073386240  0.233618560
1909090909 -0.074248176  0.236347152
1911534702 -0.073258912  0.239816816
1913978495 -0.071860912  0.242554176
1916422287 -0.071395408  0.245968304
1918866080 -0.066795804  0.249101008
1921309873 -0.062934048  0.252448976
1923753666 -0.058702024  0.255365872
1926197458 -0.053054304  0.256898704
1928641251 -0.047433564  0.256784880
1931085044 -0.040293016  0.257136944
1933528837 -0.035821032  0.254700544
1935972630 -0.030072562  0.252727712
1938416422 -0.024012512  0.250960528
1940860215 -0.021369658  0.247541728
1943304008 -0.017551810  0.245411216
1945747801 -0.014033355  0.242477904
1948191593 -0.010820865  0.239362784
1950635386 -0.008033386  0.235277072
1953079179 -0.008169594  0.232050992
1955522972 -0.006181263  0.229091520
1957966764 -0.007602166  0.225973984
1960410557 -0.007382359  0.224220208
1962854350 -0.008609837  0.224129904
1965298143 -0.009897607  0.222846336
1967741935 -0.009561810  0.225358784
1970185728 -0.009712194  0.226332624
1972629521 -0.008654445  0.229185264
1975073314 -0.006750902  0.230838080
1977517107 -0.004285862  0.231979504
1979960899 -0.000564638  0.234497632
1982404692  0.002090390  0.235529664
1984848485  0.006404610  0.236425168
1987292278  0.009599007  0.235861024
1989736070  0.013509237  0.234326400
1992179863  0.016426232  0.233391904
1994623656  0.018727840  0.232534144
1997067449  0.019625492  0.231943120
1999511241  0.022854728  0.230814320
2001955034  0.023360644  0.230986400
2004398827  0.025315888  0.231636928
2006842620  0.027151136  0.233905760
2009286413  0.028821968  0.236301856
2011730205  0.034904712  0.238094144
2014173998  0.041329884  0.239156800
2016617791  0.043850356  0.242187136
2019061584  0.052375260  0.241769632
2021505376  0.056643756  0.242024848
2023949169  0.064047300  0.241262576
2026392962  0.068566992  0.241272912
2028836755  0.075786344  0.239346512
2031280547  0.083920616  0.238388688
2033724340  0.089468328  0.236387200
2036168133  0.098607112  0.233616272
2038611926  0.102964720  0.230928688
2041055718  0.112817040  0.225234816
2043499511  0.120894256  0.220633296
2045943304  0.124455456  0.214225312
2048387097  0.130784064  0.208160784
2050830890  0.136797280  0.201400128
2053274682  0.140020000  0.194623664
2055718475  0.145240560  0.189282432
2058162268  0.146459696  0.181570432
2060606061  0.149522992  0.175742288
2063049853  0.152515904  0.168476992
2065493646  0.155429056  0.162371584
2067937439  0.158098528  0.157038816
2070381232  0.160830560  0.148978672
2072825024  0.163384160  0.143372864
2075268817  0.165128032  0.135970512
2077712610  0.165343920  0.128157392
2080156403  0.167537248  0.121759216
2082600196  0.167787984  0.113464520
2085043988  0.168211504  0.105242376
2087487781  0.168366400  0.096790232
2089931574  0.166892016  0.086946504
2092375367  0.163959072  0.080568616
2094819159  0.160616288  0.071886040
2097262952  0.156905760  0.064096288
2099706745  0.152096416  0.056960120
2102150538  0.146674352  0.051503464
2104594330  0.140686128  0.046837588
2107038123  0.135662528  0.041908232
2109481916  0.129778384  0.040810808
2111925709  0.126389664  0.038148308
2114369501  0.122070616  0.037576288
2116813294  0.118705416  0.035855184
2119257087  0.116933096  0.033673320
2121700880  0.113559520  0.034000332
2124144673  0.113929888  0.031118140
2126588465  0.113293616  0.029077982
2129032258  0.112027424  0.026207308
2131476051  0.113723112  0.020445646
2133919844  0.111888032  0.015129035
2136363636  0.109650752  0.008661773
2138807429  0.105995256  0.002085587
2141251222  0.097038232 -0.004068017
2143695015  0.093424496 -0.009727632
2146138807  0.085748224 -0.014240695
2148582600  0.079347768 -0.018237914
2151026393  0.069174680 -0.020157428
2153470186  0.061703572 -0.021486540
2155913978  0.054121380 -0.021756230
2158357771  0.042518428 -0.020336512
2160801564  0.035823124 -0.018498830
2163245357  0.027428904 -0.014641251
2165689150  0.019976288 -0.009757832
2168132942  0.019691912 -0.004898926
2170576735  0.011216741 -0.000626392
2173020528  0.009279392  0.003448388
2175464321  0.003278306  0.007649292
2177908113 -0.002544230  0.012711080
2180351906 -0.005309482  0.019166924
2182795699 -0.008349650  0.025584902
2185239492 -0.006226112  0.033553984
2187683284 -0.006353160  0.039226436
2190127077 -0.003649114  0.045127504
2192570870 -0.001936169  0.049638060
2195014663 -0.001449714  0.052476192
2197458456  0.003451427  0.056858112
2199902248  0.005497812  0.059697980
2202346041  0.011090285  0.063779532
2204789834  0.011205604  0.061969988
2207233627  0.015839350  0.064670972
2209677419  0.018412188  0.064595692
2212121212  0.020477768  0.064303004
2214565005  0.023702334  0.065001900
2217008798  0.024393438  0.061899800
2219452590  0.025520648  0.062148148
2221896383  0.027047518  0.063762488
2224340176  0.025865454  0.059577960
2226783969  0.025783112  0.061515624
2229227761  0.024479842  0.060895392
2231671554  0.022816462  0.059489748
2234115347  0.021834064  0.061187960
2236559140  0.020420348  0.061783960
2239002933  0.019241098  0.067494152
2241446725  0.017207462  0.070717104
2243890518  0.018964280  0.070886072
2246334311  0.019327858  0.076262392
2248778104  0.021073990  0.077834080
2251221896  0.021991786  0.083234128
2253665689  0.023835250  0.086636848
2256109482  0.026955186  0.085613456
2258553275  0.027318314  0.091609504
2260997067  0.030323500  0.093477976
2263440860  0.031641718  0.099766696
2265884653  0.035637176  0.101957184
2268328446  0.038550120  0.104720720
2270772239  0.043202796  0.109094192
2273216031  0.048173728  0.112920168
2275659824  0.052354436  0.117177600
2278103617  0.059070384  0.120852920
2280547410  0.065086932  0.124294200
